Using: /usr/bin/time -p /usr/cad/synopsys/hspice/cur/hspice/linux/hspice spice_1.txt
 ****** HSPICE -- E-2010.12 32-BIT (Nov 20 2010) linux ******                   
  Copyright (C) 2010 Synopsys, Inc. All Rights Reserved.                        
  Unpublished-rights reserved under US copyright laws.
  This program is protected by law and is subject to the
  terms and conditions of the license agreement from Synopsys.
  Use of this program is your acceptance to be bound by the
  license agreement. HSPICE is the trademark of Synopsys, Inc.
  Input File: spice_1.txt                                                       
  Command line options: spice_1.txt
 lic:  
 lic: FLEXlm: v10.8 
 lic: USER:   cmchang              HOSTNAME: ladyeyes 
 lic: HOSTID: f46d04643fb9         PID:      29972 
 lic: Using FLEXlm license file: 
 lic: 26585@lsntu 
 lic: Checkout 1 hspice 
 lic: License/Maintenance for hspice will expire on 14-may-2016/2015.06 
 lic: 5(in_use)/90(total) FLOATING license(s) on SERVER lsntu 
 lic:   
 Init: read install configuration file: /usr/cad/synopsys/hspice/cur/hspice/meta.cfg
 
      
 *****************************************************************
 ******  option summary
 ******
 runlvl  = 3         bypass  = 2         
1****** HSPICE -- E-2010.12 32-BIT (Nov 20 2010) linux ******                   
 ******  
 

  ******  operating point information tnom=  25.000 temp=  25.000 *****
 ***** operating point status is all       simulation time is     0.     
    node    =voltage      node    =voltage      node    =voltage

 +0:net100  =  42.0548  0:net101  =  41.5665  0:net102  =  37.5447 
 +0:net103  =  36.0041  0:net104  =  35.6740  0:net107  =  35.0169 
 +0:net108  =  35.2338  0:net111  =  35.8488  0:net115  =  42.8369 
 +0:net116  =  41.6021  0:net119  =  34.8418  0:net12   =  77.5708 
 +0:net120  =  35.2635  0:net121  =  34.2434  0:net123  =  37.0034 
 +0:net124  =  36.1679  0:net127  =  19.9340  0:net128  =  20.1595 
 +0:net130  =  32.1579  0:net137  =  53.2927  0:net138  =  53.4170 
 +0:net14   =  22.4612  0:net141  =  12.3297  0:net142  =  12.7030 
 +0:net149  =   2.3579  0:net15   =  27.1757  0:net158  =  43.0185 
 +0:net160  =  62.1514  0:net161  =  62.0636  0:net170  =  70.2712 
 +0:net175  =  53.5187  0:net176  =  41.7785  0:net177  =  33.7585 
 +0:net178  =  19.1738  0:net18   =  67.1735  0:net184  =  79.2557 
 +0:net187  =  62.4149  0:net188  =  53.6436  0:net192  =  62.3268 
 +0:net194  =  12.1243  0:net198  =  70.5692  0:net20   =  13.8135 
 +0:net201  =  19.1412  0:net203  =  79.5918  0:net206  =  11.8107 
 +0:net208  =   2.2556  0:net22   =  57.6515  0:net23   =  38.3327 
 +0:net24   =  47.3594  0:net25   =  57.8055  0:net28   =  74.2427 
 +0:net3    =   2.5993  0:net34   =  21.4629  0:net35   =  31.7557 
 +0:net36   =  36.3443  0:net37   =  47.9542  0:net41   =  64.8112 
 +0:net49   =  59.0421  0:net50   =  57.2344  0:net51   =  57.4865 
 +0:net53   =  38.2817  0:net60   =  28.8289  0:net61   =  27.7158 
 +0:net63   =   2.2461  0:net65   =  28.1141  0:net66   =  29.4529 
 +0:net74   =  12.0731  0:net75   =  11.7608  0:net78   =  51.4550 
 +0:net79   =  50.7055  0:net80   =  45.8314  0:net85   =  30.3097 
 +0:net87   =  19.0929  0:net88   =  19.0603  0:net9    =  13.6979 
 +0:net90   =  44.0036  0:net95   =  32.0221  0:net96   =  33.6159 
 +0:net99   =  47.8307  0:v       = 100.0000 


 ****  voltage sources

 subckt             
 element  0:vi      
  volts    100.0000 
  current   -8.9326 
  power    893.2584 

     total voltage source power dissipation=  893.2584        watts



 **** resistors

 subckt                                                                    
 element  0:r0       0:r1       0:r2       0:r3       0:r4       0:r5      
  r value   41.5000    10.0000    68.0000     6.0000     6.0000    22.0000 
  v drop   -27.7158    -1.1131   -45.4138     9.4315     5.7691    11.2114 
  current -667.8504m -111.3084m -667.8504m    1.5719   961.5223m  509.6103m
  power     18.5100   123.8956m   30.3296    14.8255     5.5472     5.7135 

 subckt                                                                    
 element  0:r6       0:r7       0:r8       0:r9       0:r10      0:r11     
  r value    8.0000    10.0000     4.0000     2.0000    12.0000    14.0000 
  v drop     3.6243    -5.7795     1.8076  -252.0708m   -7.3247     6.7810 
  current  453.0382m -577.9474m  451.9120m -126.0354m -610.3926m  484.3571m
  power      1.6419     3.3402   816.8977m   31.7699m    4.4709     3.2844 

 subckt                                                                    
 element  0:r12      0:r13      0:r14      0:r15      0:r16      0:r17     
  r value    6.0000     8.0000     4.0000     4.0000     8.0000     8.0000 
  v drop   749.4553m    4.8741     1.8278     2.4371   488.2546m    7.2129 
  current  124.9092m  609.2664m  456.9498m  609.2664m   61.0318m  901.6167m
  power     93.6139m    2.9696   835.2124m    1.4848    29.7991m    6.5033 

 subckt                                                                    
 element  0:r18      0:r19      0:r20      0:r21      0:r22      0:r23     
  r value   16.0000     8.0000    10.0000     1.5000    18.0000     8.0000 
  v drop    14.9078     7.6043     9.9719    -2.3579   -10.3451  -373.2292m
  current  931.7385m  950.5334m  997.1871m   -1.5719  -574.7278m  -46.6536m
  power     13.8902     7.2281     9.9438     3.7064     5.9456    17.4125m

 subckt                                                                    
 element  0:r24      0:r25      0:r26      0:r27      0:r28      0:r29     
  r value   12.0000    12.0000    22.0000     8.0000     4.0000     8.0000 
  v drop    -7.4566  -225.5389m  -14.0839     1.7607     1.5406     2.2812 
  current -621.3814m  -18.7949m -640.1763m  220.0859m  385.1502m  285.1479m
  power      4.6334     4.2390m    9.0162   387.5023m  593.3628m  650.4748m

 subckt                                                                    
 element  0:r30      0:r31      0:r32      0:r33      0:r34      0:r35     
  r value   14.0000     4.0000     6.0000     4.0000     2.0000     8.0000 
  v drop  -421.7060m    1.0201  -990.3863m  440.1717m  330.1288m  440.1717m
  current  -30.1219m  255.0261m -165.0644m  110.0429m  165.0644m   55.0215m
  power     12.7026m  260.1532m  163.4775m   48.4378m   54.4925m   24.2189m

 subckt                                                                    
 element  0:r36      0:r37      0:r38      0:r39      0:r40      0:r41     
  r value    6.0000     6.0000    12.0000    11.5000     2.0000     1.5000 
  v drop     4.0218     5.7759    -1.8278    25.7573     1.1131    -2.5993 
  current  670.2982m  962.6485m -152.3166m    2.2398   556.5420m   -1.7329 
  power      2.6958     5.5602   278.4041m   57.6903   619.4780m    4.5043 

 subckt                                                                    
 element  0:r42      0:r43      0:r44      0:r45      0:r46      0:r47     
  r value   18.0000    12.0000    12.0000    10.0000    22.0000     8.0000 
  v drop   -11.2142    -7.6495    -6.6512    -2.1956    -7.9720    -1.9374 
  current -623.0096m -637.4551m -554.2638m -219.5614m -362.3623m -242.1709m
  power      6.9865     4.8762     3.6865   482.0723m    2.8887   469.1740m

 subckt                                                                    
 element  0:r48      0:r49      0:r50      0:r51      0:r52      0:r53     
  r value    6.0000    14.0000    12.0000    12.0000     6.0000     4.0000 
  v drop     1.9884    11.1571    -4.5801     2.3028  -856.8052m   -1.3388 
  current  331.4030m  796.9342m -381.6724m  191.9015m -142.8009m -334.7023m
  power    658.9677m    8.8915     1.7481   441.9140m  122.3525m  448.1026m

 subckt                                                                    
 element  0:r54      0:r55      0:r56      0:r57      0:r58      0:r59     
  r value    8.0000     4.0000    12.0000     8.0000     8.0000    10.0000 
  v drop    -4.5886    -4.7144   998.2963m    8.7633  -115.5644m   11.0986 
  current -573.5739m   -1.1786    83.1914m    1.0954   -14.4455m    1.1099 
  power      2.6319     5.5565    83.0496m    9.5995     1.6694m   12.3179 

 subckt                                                                    
 element  0:r60      0:r61      0:r62      0:r63      0:r64      0:r65     
  r value    8.0000     6.0000    16.0000    14.0000     2.0000    10.0000 
  v drop    -9.0267  -594.7831m    9.6725    -9.8513  -154.0085m   -9.5220 
  current   -1.1283   -99.1305m  604.5332m -703.6637m  -77.0043m -952.2024m
  power     10.1852    58.9612m    5.8474     6.9320    11.8593m    9.0669 

 subckt                                                                    
 element  0:r66      0:r67      0:r68      0:r69      0:r70      0:r71     
  r value   12.0000     6.0000     9.5000   123.5000    10.0000    10.0000 
  v drop     9.3680   -10.3972    22.4292    77.5708    10.2921    -9.5147 
  current  780.6680m   -1.7329     2.3610   628.1032m    1.0292  -951.4712m
  power      7.3133    18.0170    52.9549    48.7224    10.5927     9.0530 

 subckt                                                                    
 element  0:r72      0:r73      0:r74      0:r75      0:r76      0:r77     
  r value    8.0000    16.0000     8.0000     8.0000    16.0000    14.0000 
  v drop    -7.2995   -14.5556    -7.9862     1.2348   -10.4558    -8.8587 
  current -912.4362m -909.7244m -998.2714m  154.3457m -653.4895m -632.7624m
  power      6.6603    13.2416     7.9724   190.5807m    6.8328     5.6054 

 subckt                                                                    
 element  0:r78      0:r79      0:r80      0:r81      0:r82      0:r83     
  r value   12.0000    10.0000    10.0000    14.0000     6.0000     2.0000 
  v drop    -8.1198     8.2076     8.6465    11.8150  -124.3628m   87.7817m
  current -676.6532m  820.7621m  864.6529m  843.9258m  -20.7271m   43.8908m
  power      5.4943     6.7365     7.4762     9.9709     2.5777m    3.8528m

 subckt                                                                    
 element  0:r84      0:r85      0:r86      0:r87      0:r88      0:r89     
  r value    6.0000   115.5000     9.5000    14.0000     2.0000     6.0000 
  v drop    -8.9845    79.2557   -20.7443     6.9880  -831.9065m    2.9949 
  current   -1.4974   686.1964m   -2.1836   499.1439m -415.9532m  499.1439m
  power     13.4535    54.3850    45.2975     3.4880   346.0342m    1.4949 

 subckt                                                                    
 element  0:r90      0:r91      0:r92      0:r93      0:r94      0:r95     
  r value   22.0000    12.0000    18.0000     1.5000     8.0000    12.0000 
  v drop    12.9292     7.0197     9.8270     2.2461   312.2808m   32.5415m
  current  587.6910m  584.9792m  545.9441m    1.4974    39.0351m    2.7118m
  power      7.5984     4.1064     5.3650     3.3634    12.1899m   88.2457u

 subckt                                                                    
 element  0:r96      0:r97      0:r98      0:r99      0:r100     0:r101    
  r value   18.0000    10.0000    12.0000     8.0000    14.0000    10.0000 
  v drop    -1.5938  -831.9065m   -6.0151     1.2400   -11.8651    -8.6832 
  current  -88.5471m  -83.1906m -501.2606m  155.0002m -847.5046m -868.3196m
  power    141.1305m   69.2068m    3.0151   192.2005m   10.0557     7.5398 

 subckt                                                                    
 element  0:r102     0:r103     0:r104     0:r105     0:r106     0:r107    
  r value   10.0000     6.0000     9.5000   123.5000    12.0000     2.0000 
  v drop    -8.2424    -9.0226   -20.4082    79.5918     8.1543    88.1539m
  current -824.2426m   -1.5038    -2.1482   644.4679m  679.5227m   44.0770m
  power      6.7938    13.5679    43.8416    51.2943     5.5410     3.8856m

 subckt                                                                    
 element  0:r108     0:r109     0:r110     0:r111     0:r112     0:r113    
  r value   14.0000     6.0000    16.0000     8.0000    16.0000     8.0000 
  v drop     8.8962  -124.8902m   10.5002     8.0200    14.6173     7.3304 
  current  635.4457m  -20.8150m  656.2608m    1.0025   913.5822m  916.3055m
  power      5.6531     2.5996m    6.8909     8.0401    13.3541     6.7169 

 subckt                                                                    
 element  0:r114     0:r115     0:r116     0:r117     0:r118     0:r119    
  r value   10.0000     1.5000    18.0000     8.0000    12.0000    12.0000 
  v drop     9.5551     2.2556    -9.8687   313.6050m   -7.0495    32.6795m
  current  955.5061m    1.5038  -548.2592m   39.2006m -587.4599m    2.7233m
  power      9.1299     3.3920     5.4106    12.2935m    4.1413    88.9957u

 subckt                                                         
 element  0:r120     0:r121     0:r122     0:r123     0:r124    
  r value   22.0000    18.0000     8.0000    10.0000     2.0000 
  v drop   -12.9840    -1.6006    -4.0101  -835.4343m  835.4343m
  current -590.1831m  -88.9226m -501.2606m  -83.5434m  417.7171m
  power      7.6630   142.3300m    2.0101    69.7950m  348.9752m


          ***** job concluded
1****** HSPICE -- E-2010.12 32-BIT (Nov 20 2010) linux ******                   
 ******  
 

  ******  job statistics summary tnom=  25.000 temp=  25.000 *****
 
 
 ******  Machine Information  ******
 CPU:
 model name	: Intel(R) Core(TM) i7-2600 CPU @ 3.40GHz
 cpu MHz	: 1600.000
 
 OS:
 Linux version 2.6.32-220.el6.x86_64 (mockbuild@c6b18n3.bsys.dev.centos.org) (gc
 c version 4.4.6 20110731 (Red Hat 4.4.6-3) (GCC) ) #1 SMP Tue Dec 6 19:48:22 GM
 T 2011


  ******  HSPICE Threads Information  ******

  Command Line Threads Count                  :     1
  Available CPU Count                         :     8
  Actual Model Evaluation(Load) Threads Count :     1
  Actual Solver Threads Count                 :     1


  ******  Circuit Statistics  ******
  # nodes       =      81 # elements   =     126
  # resistors   =     125 # capacitors =       0 # inductors   =       0
  # mutual_inds =       0 # vccs       =       0 # vcvs        =       0
  # cccs        =       0 # ccvs       =       0 # volt_srcs   =       1
  # curr_srcs   =       0 # diodes     =       0 # bjts        =       0
  # jfets       =       0 # mosfets    =       0 # U elements  =       0
  # T elements  =       0 # W elements =       0 # B elements  =       0
  # S elements  =       0 # P elements =       0 # va device   =       0
  # vector_srcs =       0


  ******  Runtime Statistics (seconds)  ******

  analysis           time    # points   tot. iter  conv.iter
  op point           0.00           1           4
  readin             0.01
  errchk             0.00
  setup              0.00
  output             0.00


           total memory used          195  kbytes
           total cpu time            0.01 seconds
           total elapsed time        0.21 seconds
           job started at     20:16:09 09/10/2015
           job ended   at     20:16:09 09/10/2015


 lic: Release hspice token(s) 
