Using: /usr/bin/time -p /usr/cad/synopsys/hspice/cur/hspice/linux/hspice spice_0.txt
 ****** HSPICE -- E-2010.12 32-BIT (Nov 20 2010) linux ******                   
  Copyright (C) 2010 Synopsys, Inc. All Rights Reserved.                        
  Unpublished-rights reserved under US copyright laws.
  This program is protected by law and is subject to the
  terms and conditions of the license agreement from Synopsys.
  Use of this program is your acceptance to be bound by the
  license agreement. HSPICE is the trademark of Synopsys, Inc.
  Input File: spice_0.txt                                                       
  Command line options: spice_0.txt
 lic:  
 lic: FLEXlm: v10.8 
 lic: USER:   cmchang              HOSTNAME: ladyeyes 
 lic: HOSTID: f46d04643fb9         PID:      5273 
 lic: Using FLEXlm license file: 
 lic: 26585@lsntu 
 lic: Checkout 1 hspice 
 lic: License/Maintenance for hspice will expire on 14-may-2016/2015.06 
 lic: 4(in_use)/90(total) FLOATING license(s) on SERVER lsntu 
 lic:   
 Init: read install configuration file: /usr/cad/synopsys/hspice/cur/hspice/meta.cfg
 
      
 *****************************************************************
 ******  option summary
 ******
 runlvl  = 3         bypass  = 2         
1****** HSPICE -- E-2010.12 32-BIT (Nov 20 2010) linux ******                   
 ******  
 

  ******  operating point information tnom=  25.000 temp=  25.000 *****
 ***** operating point status is all       simulation time is     0.     
    node    =voltage      node    =voltage      node    =voltage

 +0:net12   =  37.4743  0:net14   =  54.7584  0:net15   =  53.6155 
 +0:net18   =  56.6810  0:net19   =  55.6079  0:net2    =  24.9789 
 +0:net22   =  69.1196  0:net23   =  89.6724  0:net24   =  68.0897 
 +0:net3    =   4.4261  0:net4    =  26.0088  0:net7    =  35.5517 
 +0:net8    =  36.8626  0:net9    =  38.5229  0:v       = 100.0000 


 ****  voltage sources

 subckt             
 element  0:vi      
  volts    100.0000 
  current   -2.9507 
  power    295.0740 

     total voltage source power dissipation=  295.0740        watts



 **** resistors

 subckt                                                                    
 element  0:r0       0:r1       0:r2       0:r3       0:r4       0:r5      
  r value    1.5000    96.0000     3.5000    19.0000    96.0000    17.0000 
  v drop    -4.4261   -85.2463   -10.3276   -20.5528   -44.1407   -10.5728 
  current   -2.9507  -887.9823m   -2.9507    -1.0817  -459.7988m -621.9280m
  power     13.0603    75.6972    30.4740    22.2325    20.2958     6.5755 

 subckt                                                                    
 element  0:r6       0:r7       0:r8       0:r9       0:r10      0:r11     
  r value   89.0000    20.0000     5.0000    87.0000     5.0000    93.0000 
  v drop   -21.1293   -12.4386     1.9226   -17.2842     1.9226   -17.2842 
  current -237.4084m -621.9280m  384.5195m -198.6684m  384.5195m -185.8511m
  power      5.0163     7.7359   739.2764m    3.4338   739.2764m    3.2123 

 subckt                                                                    
 element  0:r12      0:r13      0:r14      0:r15      0:r16      0:r17     
  r value   19.0000    22.0000    96.0000    22.0000    23.0000    89.0000 
  v drop    20.5528   -21.5827   -42.0809    21.5827    12.4818   -18.7453 
  current    1.0817  -981.0312m -438.3430m  981.0312m  542.6882m -210.6217m
  power     22.2325    21.1733    18.4459    21.1733     6.7737     3.9482 

 subckt                                                         
 element  0:r18      0:r19      0:r20      0:r21      0:r22     
  r value   20.0000     5.0000    88.0000     6.0000    94.0000 
  v drop    10.8538    -1.6603   -15.0926    -1.9924    15.0926 
  current  542.6882m -332.0665m -171.5069m -332.0665m  160.5596m
  power      5.8902   551.3407m    2.5885   661.6088m    2.4233 


          ***** job concluded
1****** HSPICE -- E-2010.12 32-BIT (Nov 20 2010) linux ******                   
 ******  
 

  ******  job statistics summary tnom=  25.000 temp=  25.000 *****
 
 
 ******  Machine Information  ******
 CPU:
 model name	: Intel(R) Core(TM) i7-2600 CPU @ 3.40GHz
 cpu MHz	: 1600.000
 
 OS:
 Linux version 2.6.32-220.el6.x86_64 (mockbuild@c6b18n3.bsys.dev.centos.org) (gc
 c version 4.4.6 20110731 (Red Hat 4.4.6-3) (GCC) ) #1 SMP Tue Dec 6 19:48:22 GM
 T 2011


  ******  HSPICE Threads Information  ******

  Command Line Threads Count                  :     1
  Available CPU Count                         :     8
  Actual Model Evaluation(Load) Threads Count :     1
  Actual Solver Threads Count                 :     1


  ******  Circuit Statistics  ******
  # nodes       =      16 # elements   =      24
  # resistors   =      23 # capacitors =       0 # inductors   =       0
  # mutual_inds =       0 # vccs       =       0 # vcvs        =       0
  # cccs        =       0 # ccvs       =       0 # volt_srcs   =       1
  # curr_srcs   =       0 # diodes     =       0 # bjts        =       0
  # jfets       =       0 # mosfets    =       0 # U elements  =       0
  # T elements  =       0 # W elements =       0 # B elements  =       0
  # S elements  =       0 # P elements =       0 # va device   =       0
  # vector_srcs =       0


  ******  Runtime Statistics (seconds)  ******

  analysis           time    # points   tot. iter  conv.iter
  op point           0.00           1           4
  readin             0.01
  errchk             0.00
  setup              0.00
  output             0.00


           total memory used           32  kbytes
           total cpu time            0.01 seconds
           total elapsed time        0.20 seconds
           job started at     23:26:43 09/09/2015
           job ended   at     23:26:44 09/09/2015


 lic: Release hspice token(s) 
