Using: /usr/bin/time -p /usr/cad/synopsys/hspice/cur/hspice/linux/hspice spice_0.txt
 ****** HSPICE -- E-2010.12 32-BIT (Nov 20 2010) linux ******                   
  Copyright (C) 2010 Synopsys, Inc. All Rights Reserved.                        
  Unpublished-rights reserved under US copyright laws.
  This program is protected by law and is subject to the
  terms and conditions of the license agreement from Synopsys.
  Use of this program is your acceptance to be bound by the
  license agreement. HSPICE is the trademark of Synopsys, Inc.
  Input File: spice_0.txt                                                       
  Command line options: spice_0.txt
 lic:  
 lic: FLEXlm: v10.8 
 lic: USER:   cmchang              HOSTNAME: ladyeyes 
 lic: HOSTID: f46d04643fb9         PID:      1187 
 lic: Using FLEXlm license file: 
 lic: 26585@lsntu 
 lic: Checkout 1 hspice 
 lic: License/Maintenance for hspice will expire on 14-may-2016/2015.06 
 lic: 1(in_use)/90(total) FLOATING license(s) on SERVER lsntu 
 lic:   
 Init: read install configuration file: /usr/cad/synopsys/hspice/cur/hspice/meta.cfg
 
      
 *****************************************************************
 ******  option summary
 ******
 runlvl  = 3         bypass  = 2         
1****** HSPICE -- E-2010.12 32-BIT (Nov 20 2010) linux ******                   
 ******  
 

  ******  operating point information tnom=  25.000 temp=  25.000 *****
 ***** operating point status is all       simulation time is     0.     
    node    =voltage      node    =voltage      node    =voltage

 +0:net147  =  89.8738  0:net149  =  89.8738  0:net150  =  98.1354 
 +0:net169  =  98.1354  0:net25   =  98.1354  0:net26   =  89.8738 
 +0:net28   =  89.8738  0:net6    =  98.1354  0:v       = 100.0000 


 ****  voltage sources

 subckt             
 element  0:vi      
  volts    100.0000 
  current  -12.8277 
  power      1.2828k

     total voltage source power dissipation=    1.2828k       watts



 **** resistors

 subckt                                                                    
 element  0:r0       0:r1       0:r2       0:r3       0:r4       0:r5      
  r value  120.5000    16.0000     2.5000    36.0000    95.0000    71.0000 
  v drop   -89.8738     8.2616     1.8646     8.2616  -100.0000  -100.0000 
  current -745.8405m  516.3511m  745.8405m  229.4894m   -1.0526    -1.4085 
  power     67.0315     4.2659     1.3907     1.8960   105.2632   140.8451 

 subckt                                                                    
 element  0:r6       0:r7       0:r8       0:r9       0:r10      0:r11     
  r value    2.5000    36.0000    16.0000   120.5000    95.0000    71.0000 
  v drop     1.8646     8.2616     8.2616    89.8738   100.0000   100.0000 
  current  745.8405m  229.4894m  516.3511m  745.8405m    1.0526     1.4085 
  power      1.3907     1.8960     4.2659    67.0315   105.2632   140.8451 

 subckt                                                                    
 element  0:r12      0:r13      0:r14      0:r15      0:r16      0:r17     
  r value  120.5000    36.0000    16.0000     2.5000    95.0000    71.0000 
  v drop   -89.8738    -8.2616    -8.2616    -1.8646  -100.0000  -100.0000 
  current -745.8405m -229.4894m -516.3511m -745.8405m   -1.0526    -1.4085 
  power     67.0315     1.8960     4.2659     1.3907   105.2632   140.8451 

 subckt                                                                    
 element  0:r18      0:r19      0:r20      0:r21      0:r22      0:r23     
  r value   16.0000     2.5000    36.0000   120.5000    95.0000    71.0000 
  v drop    -8.2616    -1.8646     8.2616    89.8738   100.0000   100.0000 
  current -516.3511m -745.8405m  229.4894m  745.8405m    1.0526     1.4085 
  power      4.2659     1.3907     1.8960    67.0315   105.2632   140.8451 


          ***** job concluded
1****** HSPICE -- E-2010.12 32-BIT (Nov 20 2010) linux ******                   
 ******  
 

  ******  job statistics summary tnom=  25.000 temp=  25.000 *****
 
 
 ******  Machine Information  ******
 CPU:
 model name	: Intel(R) Core(TM) i7-2600 CPU @ 3.40GHz
 cpu MHz	: 1600.000
 
 OS:
 Linux version 2.6.32-220.el6.x86_64 (mockbuild@c6b18n3.bsys.dev.centos.org) (gc
 c version 4.4.6 20110731 (Red Hat 4.4.6-3) (GCC) ) #1 SMP Tue Dec 6 19:48:22 GM
 T 2011


  ******  HSPICE Threads Information  ******

  Command Line Threads Count                  :     1
  Available CPU Count                         :     8
  Actual Model Evaluation(Load) Threads Count :     1
  Actual Solver Threads Count                 :     1


  ******  Circuit Statistics  ******
  # nodes       =      10 # elements   =      25
  # resistors   =      24 # capacitors =       0 # inductors   =       0
  # mutual_inds =       0 # vccs       =       0 # vcvs        =       0
  # cccs        =       0 # ccvs       =       0 # volt_srcs   =       1
  # curr_srcs   =       0 # diodes     =       0 # bjts        =       0
  # jfets       =       0 # mosfets    =       0 # U elements  =       0
  # T elements  =       0 # W elements =       0 # B elements  =       0
  # S elements  =       0 # P elements =       0 # va device   =       0
  # vector_srcs =       0


  ******  Runtime Statistics (seconds)  ******

  analysis           time    # points   tot. iter  conv.iter
  op point           0.00           1           4
  readin             0.00
  errchk             0.00
  setup              0.00
  output             0.00


           total memory used           29  kbytes
           total cpu time            0.00 seconds
           total elapsed time        0.19 seconds
           job started at     17:07:49 09/09/2015
           job ended   at     17:07:49 09/09/2015


 lic: Release hspice token(s) 
